
T1420 000:403 SEGGER J-Link V4.80g Log File (0001ms, 0271ms total)
T1420 000:403 DLL Compiled: Feb 13 2014 20:50:02 (0001ms, 0271ms total)
T1420 000:403 Logging started @ 2016-05-28 16:52 (0001ms, 0271ms total)
T1420 000:404 JLINK_SetWarnOutHandler(...) (0000ms, 0271ms total)
T1420 000:404 JLINK_OpenEx(...)
Firmware: J-Link V9 compiled Mar 14 2016 11:11:11
Hardware: V9.40
S/N: 59400001
Feature(s): GDB, RDI, FlashBP, FlashDL, JFlash, RDDI  returns O.K. (0260ms, 0531ms total)
T1420 000:664 JLINK_SetErrorOutHandler(...) (0000ms, 0531ms total)
T1420 000:664 JLINK_ExecCommand("ProjectFile = "E:\Arthas\Workspace\Oscilloscope Control Board\Oscilloscope Control Board v2.1\Firmware_v2.1\RVMDK\JLinkSettings.ini"", ...)  returns 0x00 (0000ms, 0531ms total)
T1420 000:669 JLINK_ExecCommand("Device = STM32F103C8", ...)Device "STM32F103C8" selected (64 KB flash, 20 KB RAM).  returns 0x00 (0004ms, 0535ms total)
T1420 000:673 JLINK_ExecCommand("DisableConnectionTimeout", ...)  returns 0x01 (0000ms, 0535ms total)
T1420 000:673 JLINK_GetHardwareVersion()  returns 0x16F30 (0000ms, 0535ms total)
T1420 000:673 JLINK_GetDLLVersion()  returns 48007 (0000ms, 0535ms total)
T1420 000:673 JLINK_GetFirmwareString(...) (0000ms, 0535ms total)
T1420 000:703 JLINK_GetDLLVersion()  returns 48007 (0000ms, 0535ms total)
T1420 000:703 JLINK_GetCompileDateTime() (0000ms, 0535ms total)
T1420 000:708 JLINK_GetFirmwareString(...) (0000ms, 0535ms total)
T1420 000:714 JLINK_GetHardwareVersion()  returns 0x16F30 (0000ms, 0535ms total)
T1420 000:740 JLINK_TIF_Select(JLINKARM_TIF_SWD)  returns 0x00 (0001ms, 0536ms total)
T1420 000:741 JLINK_SetSpeed(1000) (0000ms, 0536ms total)
T1420 000:741 JLINK_GetId() >0x108 TIF>Found SWD-DP with ID 0x1BA01477 >0x0D TIF> >0x28 TIF> >0x0D TIF> >0x28 TIF> >0x0D TIF> >0x21 TIF> >0x0D TIF> >0x28 TIF> >0x0D TIF> >0x28 TIF> >0x0D TIF> >0x28 TIF> >0x0D TIF> >0x21 TIF> >0x0D TIF> >0x21 TIF> >0x0D TIF> >0x28 TIF> >0x0D TIF> >0x21 TIF> >0x0D TIF> >0x21 TIF> >0x0D TIF> >0x28 TIF> >0x0D TIF> >0x28 TIF> >0x108 TIF>Found SWD-DP with ID 0x1BA01477 >0x0D TIF> >0x21 TIF> >0x0D TIF> >0x28 TIF> >0x0D TIF> >0x28 TIF> >0x0D TIF> >0x21 TIF> >0x0D TIF> >0x28 TIF>
 >0x0D TIF> >0x21 TIF> >0x0D TIF> >0x21 TIF> >0x0D TIF> >0x21 TIF> >0x0D TIF> >0x21 TIF> >0x0D TIF> >0x28 TIF> >0x0D TIF> >0x28 TIF> >0x0D TIF> >0x21 TIF> >0x0D TIF> >0x28 TIF> >0x0D TIF> >0x28 TIF> >0x0D TIF> >0x28 TIF> >0x0D TIF> >0x21 TIF> >0x0D TIF> >0x21 TIF> >0x0D TIF> >0x28 TIF> >0x0D TIF> >0x21 TIF> >0x0D TIF> >0x21 TIF>Found Cortex-M3 r1p1, Little endian. -- CPU_WriteMem(4 bytes @ 0xE0002000) -- CPU_ReadMem(4 bytes @ 0xE000EDF0) -- CPU_WriteMem(4 bytes @ 0xE000EDF0)
 -- CPU_ReadMem(4 bytes @ 0xE0002000)FPUnit: 6 code (BP) slots and 2 literal slots -- CPU_ReadMem(4 bytes @ 0xE000EDFC) -- CPU_WriteMem(4 bytes @ 0xE000EDFC) -- CPU_ReadMem(4 bytes @ 0xE0001000) -- CPU_WriteMem(4 bytes @ 0xE0001000) -- CPU_ReadMem(4 bytes @ 0xE00FF010)TPIU fitted. -- CPU_ReadMem(4 bytes @ 0xE00FF014) -- CPU_ReadMem(4 bytes @ 0xE00FF018) >0x0D TIF> >0x21 TIF>  returns 0x1BA01477 (0078ms, 0614ms total)
T1420 000:819 JLINK_GetDeviceFamily()  returns 3 (0000ms, 0614ms total)
T1420 000:824 JLINK_ReadMem (0xE00FFFF0, 0x0010 Bytes, ...) -- CPU is running -- CPU_ReadMem(16 bytes @ 0xE00FFFF0) -- Data:  0D 00 00 00 10 00 00 00 05 00 00 00 B1 00 00 00  returns 0x00 (0002ms, 0616ms total)
T1420 000:826 JLINK_ReadMem (0xE00FFFD0, 0x0020 Bytes, ...) -- CPU is running -- CPU_ReadMem(32 bytes @ 0xE00FFFD0) -- Data:  00 00 00 00 00 00 00 00 00 00 00 00 00 00 00 00 ...  returns 0x00 (0002ms, 0618ms total)
T1420 000:828 JLINK_ReadMem (0xE00FF000, 0x0018 Bytes, ...) -- CPU is running -- CPU_ReadMem(24 bytes @ 0xE00FF000) -- Data:  03 F0 F0 FF 03 20 F0 FF 03 30 F0 FF 03 10 F0 FF ...  returns 0x00 (0001ms, 0619ms total)
T1420 000:829 JLINK_ReadMemU32(0xE000ED00, 0x0001 Items, ...) -- CPU is running -- CPU_ReadMem(4 bytes @ 0xE000ED00) -- Data:  31 C2 1F 41  returns 0x01 (0001ms, 0620ms total)
T1420 000:830 JLINK_SetResetType(JLINKARM_RESET_TYPE_NORMAL)  returns JLINKARM_RESET_TYPE_NORMAL (0000ms, 0620ms total)
T1420 000:830 JLINK_Reset() -- CPU is running -- CPU_WriteMem(4 bytes @ 0xE000EDF0) -- CPU is running -- CPU_WriteMem(4 bytes @ 0xE000EDFC) >0x35 TIF> -- CPU is running -- CPU_WriteMem(4 bytes @ 0xE000ED0C) -- CPU is running -- CPU_ReadMem(4 bytes @ 0xE000EDF0) -- CPU is running -- CPU_ReadMem(4 bytes @ 0xE000EDF0) -- CPU is running -- CPU_ReadMem(4 bytes @ 0xE000EDF0) -- CPU is running -- CPU_WriteMem(4 bytes @ 0xE000EDF0) -- CPU is running -- CPU_WriteMem(4 bytes @ 0xE000EDFC) -- CPU is running
 -- CPU_ReadMem(4 bytes @ 0xE000EDF0) -- CPU_WriteMem(4 bytes @ 0xE0002000) -- CPU_ReadMem(4 bytes @ 0xE000EDFC) -- CPU_ReadMem(4 bytes @ 0xE0001000) (0033ms, 0653ms total)
T1420 000:863 JLINK_Halt()  returns 0x00 (0000ms, 0653ms total)
T1420 000:863 JLINK_IsHalted()  returns TRUE (0000ms, 0653ms total)
T1420 000:863 JLINK_ReadMemU32(0xE000EDF0, 0x0001 Items, ...) -- CPU_ReadMem(4 bytes @ 0xE000EDF0) -- Data:  03 00 03 00  returns 0x01 (0001ms, 0654ms total)
T1420 000:864 JLINK_WriteU32(0xE000EDF0, 0xA05F0003) -- CPU_WriteMem(4 bytes @ 0xE000EDF0)  returns 0x00 (0001ms, 0655ms total)
T1420 000:865 JLINK_WriteU32(0xE000EDFC, 0x01000000) -- CPU_WriteMem(4 bytes @ 0xE000EDFC)  returns 0x00 (0001ms, 0656ms total)
T1420 000:902 JLINK_GetHWStatus(...)  returns 0x00 (0001ms, 0657ms total)
T1420 000:921 JLINK_GetNumBPUnits(Type = 0xFFFFFF00)  returns 0x06 (0000ms, 0657ms total)
T1420 000:921 JLINK_GetNumBPUnits(Type = 0xF0)  returns 0x2000 (0000ms, 0657ms total)
T1420 000:921 JLINK_GetNumWPUnits()  returns 0x04 (0000ms, 0657ms total)
T1420 000:940 JLINK_GetSpeed()  returns 0x3E8 (0000ms, 0657ms total)
T1420 000:952 JLINK_ReadMemU32(0xE000E004, 0x0001 Items, ...) -- CPU_ReadMem(4 bytes @ 0xE000E004) -- Data:  01 00 00 00  returns 0x01 (0001ms, 0658ms total)
T1420 000:953 JLINK_ReadMemU32(0xE000E004, 0x0001 Items, ...) -- CPU_ReadMem(4 bytes @ 0xE000E004) -- Data:  01 00 00 00  returns 0x01 (0001ms, 0659ms total)
T1420 000:954 JLINK_WriteMem(0xE0001000, 0x001C Bytes, ...) -- Data:  01 00 00 00 00 00 00 00 00 00 00 00 00 00 00 00 ... -- CPU_WriteMem(28 bytes @ 0xE0001000)  returns 0x1C (0002ms, 0661ms total)
T1420 000:956 JLINK_ReadMem (0xE0001000, 0x001C Bytes, ...) -- CPU_ReadMem(28 bytes @ 0xE0001000) -- Data:  01 00 00 40 00 00 00 00 00 00 00 00 00 00 00 00 ...  returns 0x00 (0001ms, 0662ms total)
T1420 000:957 JLINK_Halt()  returns 0x00 (0000ms, 0662ms total)
T1420 000:957 JLINK_IsHalted()  returns TRUE (0000ms, 0662ms total)
T1420 000:960 JLINK_WriteMem(0x20000000, 0x0164 Bytes, ...) -- Data:  00 BE 0A E0 0D 78 2D 06 68 40 08 24 40 00 00 D3 ... -- CPU_WriteMem(356 bytes @ 0x20000000)  returns 0x164 (0009ms, 0671ms total)
T1420 000:969 JLINK_WriteReg(R0, 0x08000000)  returns 0x00 (0000ms, 0671ms total)
T1420 000:969 JLINK_WriteReg(R1, 0x044AA200)  returns 0x00 (0000ms, 0671ms total)
T1420 000:969 JLINK_WriteReg(R2, 0x00000001)  returns 0x00 (0000ms, 0671ms total)
T1420 000:969 JLINK_WriteReg(R3, 0x00000000)  returns 0x00 (0000ms, 0671ms total)
T1420 000:969 JLINK_WriteReg(R4, 0x00000000)  returns 0x00 (0000ms, 0671ms total)
T1420 000:969 JLINK_WriteReg(R5, 0x00000000)  returns 0x00 (0000ms, 0671ms total)
T1420 000:969 JLINK_WriteReg(R6, 0x00000000)  returns 0x00 (0000ms, 0671ms total)
T1420 000:969 JLINK_WriteReg(R7, 0x00000000)  returns 0x00 (0000ms, 0671ms total)
T1420 000:969 JLINK_WriteReg(R8, 0x00000000)  returns 0x00 (0000ms, 0671ms total)
T1420 000:969 JLINK_WriteReg(R9, 0x20000160)  returns 0x00 (0000ms, 0671ms total)
T1420 000:969 JLINK_WriteReg(R10, 0x00000000)  returns 0x00 (0000ms, 0671ms total)
T1420 000:969 JLINK_WriteReg(R11, 0x00000000)  returns 0x00 (0000ms, 0671ms total)
T1420 000:969 JLINK_WriteReg(R12, 0x00000000)  returns 0x00 (0000ms, 0671ms total)
T1420 000:969 JLINK_WriteReg(R13 (SP), 0x20000800)  returns 0x00 (0000ms, 0671ms total)
T1420 000:969 JLINK_WriteReg(R14, 0x20000001)  returns 0x00 (0000ms, 0671ms total)
T1420 000:969 JLINK_WriteReg(R15 (PC), 0x20000038)  returns 0x00 (0000ms, 0671ms total)
T1420 000:969 JLINK_WriteReg(XPSR, 0x01000000)  returns 0x00 (0000ms, 0671ms total)
T1420 000:969 JLINK_WriteReg(MSP, 0x20000800)  returns 0x00 (0000ms, 0671ms total)
T1420 000:969 JLINK_WriteReg(PSP, 0x20000800)  returns 0x00 (0000ms, 0671ms total)
T1420 000:969 JLINK_WriteReg(CFBP, 0x00000000)  returns 0x00 (0001ms, 0672ms total)
T1420 000:970 JLINK_SetBPEx(Addr = 0x20000000, Type = 0xFFFFFFF2) -- CPU_ReadMem(2 bytes @ 0x20000000)  returns 0x00000001 (0001ms, 0673ms total)
T1420 000:971 JLINK_Go() -- CPU_WriteMem(2 bytes @ 0x20000000) -- CPU_WriteMem(4 bytes @ 0xE0002008) -- CPU_WriteMem(4 bytes @ 0xE000200C) -- CPU_WriteMem(4 bytes @ 0xE0002010) -- CPU_WriteMem(4 bytes @ 0xE0002014) -- CPU_WriteMem(4 bytes @ 0xE0002018) -- CPU_WriteMem(4 bytes @ 0xE000201C) -- CPU_WriteMem(4 bytes @ 0xE0001004) (0014ms, 0687ms total)
T1420 000:985 JLINK_IsHalted() -- CPU_ReadMem(2 bytes @ 0x20000000)  returns TRUE (0012ms, 0699ms total)
T1420 000:997 JLINK_ReadReg(R15 (PC))  returns 0x20000000 (0000ms, 0687ms total)
T1420 000:997 JLINK_ClrBPEx(BPHandle = 0x00000001)  returns 0x00 (0000ms, 0687ms total)
T1420 000:997 JLINK_ReadReg(R0)  returns 0x00000000 (0000ms, 0687ms total)
T1420 000:997 JLINK_WriteReg(R0, 0x08000000)  returns 0x00 (0000ms, 0687ms total)
T1420 000:997 JLINK_WriteReg(R1, 0x044AA200)  returns 0x00 (0001ms, 0688ms total)
T1420 000:998 JLINK_WriteReg(R2, 0x00000001)  returns 0x00 (0000ms, 0688ms total)
T1420 000:998 JLINK_WriteReg(R3, 0x00000000)  returns 0x00 (0000ms, 0688ms total)
T1420 000:998 JLINK_WriteReg(R4, 0x00000000)  returns 0x00 (0000ms, 0688ms total)
T1420 000:998 JLINK_WriteReg(R5, 0x00000000)  returns 0x00 (0000ms, 0688ms total)
T1420 000:998 JLINK_WriteReg(R6, 0x00000000)  returns 0x00 (0000ms, 0688ms total)
T1420 000:998 JLINK_WriteReg(R7, 0x00000000)  returns 0x00 (0000ms, 0688ms total)
T1420 000:998 JLINK_WriteReg(R8, 0x00000000)  returns 0x00 (0000ms, 0688ms total)
T1420 000:998 JLINK_WriteReg(R9, 0x20000160)  returns 0x00 (0000ms, 0688ms total)
T1420 000:998 JLINK_WriteReg(R10, 0x00000000)  returns 0x00 (0000ms, 0688ms total)
T1420 000:998 JLINK_WriteReg(R11, 0x00000000)  returns 0x00 (0000ms, 0688ms total)
T1420 000:998 JLINK_WriteReg(R12, 0x00000000)  returns 0x00 (0000ms, 0688ms total)
T1420 000:998 JLINK_WriteReg(R13 (SP), 0x20000800)  returns 0x00 (0000ms, 0688ms total)
T1420 000:998 JLINK_WriteReg(R14, 0x20000001)  returns 0x00 (0000ms, 0688ms total)
T1420 000:998 JLINK_WriteReg(R15 (PC), 0x2000007C)  returns 0x00 (0000ms, 0688ms total)
T1420 000:998 JLINK_WriteReg(XPSR, 0x01000000)  returns 0x00 (0000ms, 0688ms total)
T1420 000:998 JLINK_WriteReg(MSP, 0x20000800)  returns 0x00 (0000ms, 0688ms total)
T1420 000:998 JLINK_WriteReg(PSP, 0x20000800)  returns 0x00 (0000ms, 0688ms total)
T1420 000:998 JLINK_WriteReg(CFBP, 0x00000000)  returns 0x00 (0000ms, 0688ms total)
T1420 000:998 JLINK_SetBPEx(Addr = 0x20000000, Type = 0xFFFFFFF2)  returns 0x00000002 (0000ms, 0688ms total)
T1420 000:998 JLINK_Go() (0005ms, 0693ms total)
T1420 001:003 JLINK_IsHalted()  returns FALSE (0001ms, 0694ms total)
T1420 001:111 JLINK_IsHalted() -- CPU_ReadMem(2 bytes @ 0x20000000)  returns TRUE (0012ms, 0705ms total)
T1420 001:123 JLINK_ReadReg(R15 (PC))  returns 0x20000000 (0000ms, 0693ms total)
T1420 001:123 JLINK_ClrBPEx(BPHandle = 0x00000002)  returns 0x00 (0000ms, 0693ms total)
T1420 001:123 JLINK_ReadReg(R0)  returns 0x00000000 (0000ms, 0693ms total)
T1420 001:173 JLINK_WriteReg(R0, 0x00000001)  returns 0x00 (0000ms, 0693ms total)
T1420 001:173 JLINK_WriteReg(R1, 0x044AA200)  returns 0x00 (0000ms, 0693ms total)
T1420 001:173 JLINK_WriteReg(R2, 0x00000001)  returns 0x00 (0000ms, 0693ms total)
T1420 001:174 JLINK_WriteReg(R3, 0x00000000)  returns 0x00 (0000ms, 0694ms total)
T1420 001:174 JLINK_WriteReg(R4, 0x00000000)  returns 0x00 (0000ms, 0694ms total)
T1420 001:174 JLINK_WriteReg(R5, 0x00000000)  returns 0x00 (0000ms, 0694ms total)
T1420 001:174 JLINK_WriteReg(R6, 0x00000000)  returns 0x00 (0000ms, 0694ms total)
T1420 001:174 JLINK_WriteReg(R7, 0x00000000)  returns 0x00 (0000ms, 0694ms total)
T1420 001:174 JLINK_WriteReg(R8, 0x00000000)  returns 0x00 (0000ms, 0694ms total)
T1420 001:174 JLINK_WriteReg(R9, 0x20000160)  returns 0x00 (0000ms, 0694ms total)
T1420 001:174 JLINK_WriteReg(R10, 0x00000000)  returns 0x00 (0000ms, 0694ms total)
T1420 001:174 JLINK_WriteReg(R11, 0x00000000)  returns 0x00 (0000ms, 0694ms total)
T1420 001:174 JLINK_WriteReg(R12, 0x00000000)  returns 0x00 (0000ms, 0694ms total)
T1420 001:174 JLINK_WriteReg(R13 (SP), 0x20000800)  returns 0x00 (0000ms, 0694ms total)
T1420 001:174 JLINK_WriteReg(R14, 0x20000001)  returns 0x00 (0000ms, 0694ms total)
T1420 001:174 JLINK_WriteReg(R15 (PC), 0x2000006A)  returns 0x00 (0000ms, 0694ms total)
T1420 001:174 JLINK_WriteReg(XPSR, 0x01000000)  returns 0x00 (0000ms, 0694ms total)
T1420 001:174 JLINK_WriteReg(MSP, 0x20000800)  returns 0x00 (0000ms, 0694ms total)
T1420 001:174 JLINK_WriteReg(PSP, 0x20000800)  returns 0x00 (0000ms, 0694ms total)
T1420 001:174 JLINK_WriteReg(CFBP, 0x00000000)  returns 0x00 (0000ms, 0694ms total)
T1420 001:174 JLINK_SetBPEx(Addr = 0x20000000, Type = 0xFFFFFFF2)  returns 0x00000003 (0000ms, 0694ms total)
T1420 001:174 JLINK_Go() (0005ms, 0699ms total)
T1420 001:179 JLINK_IsHalted() -- CPU_ReadMem(2 bytes @ 0x20000000)  returns TRUE (0012ms, 0711ms total)
T1420 001:191 JLINK_ReadReg(R15 (PC))  returns 0x20000000 (0000ms, 0699ms total)
T1420 001:191 JLINK_ClrBPEx(BPHandle = 0x00000003)  returns 0x00 (0000ms, 0699ms total)
T1420 001:191 JLINK_ReadReg(R0)  returns 0x00000000 (0000ms, 0699ms total)
T1420 001:202 JLINK_WriteMem(0x20000000, 0x0164 Bytes, ...) -- Data:  00 BE 0A E0 0D 78 2D 06 68 40 08 24 40 00 00 D3 ... -- CPU_WriteMem(356 bytes @ 0x20000000)  returns 0x164 (0010ms, 0709ms total)
T1420 001:212 JLINK_WriteReg(R0, 0x08000000)  returns 0x00 (0000ms, 0709ms total)
T1420 001:212 JLINK_WriteReg(R1, 0x044AA200)  returns 0x00 (0000ms, 0709ms total)
T1420 001:212 JLINK_WriteReg(R2, 0x00000002)  returns 0x00 (0000ms, 0709ms total)
T1420 001:212 JLINK_WriteReg(R3, 0x00000000)  returns 0x00 (0000ms, 0709ms total)
T1420 001:212 JLINK_WriteReg(R4, 0x00000000)  returns 0x00 (0000ms, 0709ms total)
T1420 001:212 JLINK_WriteReg(R5, 0x00000000)  returns 0x00 (0000ms, 0709ms total)
T1420 001:212 JLINK_WriteReg(R6, 0x00000000)  returns 0x00 (0000ms, 0709ms total)
T1420 001:212 JLINK_WriteReg(R7, 0x00000000)  returns 0x00 (0000ms, 0709ms total)
T1420 001:212 JLINK_WriteReg(R8, 0x00000000)  returns 0x00 (0000ms, 0709ms total)
T1420 001:212 JLINK_WriteReg(R9, 0x20000160)  returns 0x00 (0000ms, 0709ms total)
T1420 001:212 JLINK_WriteReg(R10, 0x00000000)  returns 0x00 (0000ms, 0709ms total)
T1420 001:212 JLINK_WriteReg(R11, 0x00000000)  returns 0x00 (0000ms, 0709ms total)
T1420 001:212 JLINK_WriteReg(R12, 0x00000000)  returns 0x00 (0000ms, 0709ms total)
T1420 001:212 JLINK_WriteReg(R13 (SP), 0x20000800)  returns 0x00 (0000ms, 0709ms total)
T1420 001:212 JLINK_WriteReg(R14, 0x20000001)  returns 0x00 (0000ms, 0709ms total)
T1420 001:212 JLINK_WriteReg(R15 (PC), 0x20000038)  returns 0x00 (0000ms, 0709ms total)
T1420 001:212 JLINK_WriteReg(XPSR, 0x01000000)  returns 0x00 (0000ms, 0709ms total)
T1420 001:212 JLINK_WriteReg(MSP, 0x20000800)  returns 0x00 (0000ms, 0709ms total)
T1420 001:212 JLINK_WriteReg(PSP, 0x20000800)  returns 0x00 (0000ms, 0709ms total)
T1420 001:213 JLINK_WriteReg(CFBP, 0x00000000)  returns 0x00 (0000ms, 0710ms total)
T1420 001:213 JLINK_SetBPEx(Addr = 0x20000000, Type = 0xFFFFFFF2) -- CPU_ReadMem(2 bytes @ 0x20000000)  returns 0x00000004 (0001ms, 0711ms total)
T1420 001:214 JLINK_Go() -- CPU_WriteMem(2 bytes @ 0x20000000) (0005ms, 0716ms total)
T1420 001:219 JLINK_IsHalted() -- CPU_ReadMem(2 bytes @ 0x20000000)  returns TRUE (0012ms, 0728ms total)
T1420 001:232 JLINK_ReadReg(R15 (PC))  returns 0x20000000 (0000ms, 0716ms total)
T1420 001:232 JLINK_ClrBPEx(BPHandle = 0x00000004)  returns 0x00 (0000ms, 0716ms total)
T1420 001:232 JLINK_ReadReg(R0)  returns 0x00000000 (0000ms, 0716ms total)
T1420 001:232 JLINK_WriteMem(0x20000164, 0x0400 Bytes, ...) -- Data:  38 09 00 20 01 02 00 08 4D 2E 00 08 95 2D 00 08 ... -- CPU_WriteMem(1024 bytes @ 0x20000164)  returns 0x400 (0024ms, 0740ms total)
T1420 001:256 JLINK_WriteReg(R0, 0x08000000)  returns 0x00 (0000ms, 0740ms total)
T1420 001:256 JLINK_WriteReg(R1, 0x00000400)  returns 0x00 (0000ms, 0740ms total)
T1420 001:256 JLINK_WriteReg(R2, 0x20000164)  returns 0x00 (0000ms, 0740ms total)
T1420 001:256 JLINK_WriteReg(R3, 0x00000000)  returns 0x00 (0000ms, 0740ms total)
T1420 001:256 JLINK_WriteReg(R4, 0x00000000)  returns 0x00 (0000ms, 0740ms total)
T1420 001:256 JLINK_WriteReg(R5, 0x00000000)  returns 0x00 (0000ms, 0740ms total)
T1420 001:256 JLINK_WriteReg(R6, 0x00000000)  returns 0x00 (0001ms, 0741ms total)
T1420 001:257 JLINK_WriteReg(R7, 0x00000000)  returns 0x00 (0000ms, 0741ms total)
T1420 001:257 JLINK_WriteReg(R8, 0x00000000)  returns 0x00 (0000ms, 0741ms total)
T1420 001:257 JLINK_WriteReg(R9, 0x20000160)  returns 0x00 (0000ms, 0741ms total)
T1420 001:257 JLINK_WriteReg(R10, 0x00000000)  returns 0x00 (0000ms, 0741ms total)
T1420 001:257 JLINK_WriteReg(R11, 0x00000000)  returns 0x00 (0000ms, 0741ms total)
T1420 001:257 JLINK_WriteReg(R12, 0x00000000)  returns 0x00 (0000ms, 0741ms total)
T1420 001:257 JLINK_WriteReg(R13 (SP), 0x20000800)  returns 0x00 (0000ms, 0741ms total)
T1420 001:257 JLINK_WriteReg(R14, 0x20000001)  returns 0x00 (0000ms, 0741ms total)
T1420 001:257 JLINK_WriteReg(R15 (PC), 0x200000F4)  returns 0x00 (0000ms, 0741ms total)
T1420 001:257 JLINK_WriteReg(XPSR, 0x01000000)  returns 0x00 (0000ms, 0741ms total)
T1420 001:257 JLINK_WriteReg(MSP, 0x20000800)  returns 0x00 (0000ms, 0741ms total)
T1420 001:257 JLINK_WriteReg(PSP, 0x20000800)  returns 0x00 (0000ms, 0741ms total)
T1420 001:257 JLINK_WriteReg(CFBP, 0x00000000)  returns 0x00 (0000ms, 0741ms total)
T1420 001:257 JLINK_SetBPEx(Addr = 0x20000000, Type = 0xFFFFFFF2)  returns 0x00000005 (0000ms, 0741ms total)
T1420 001:257 JLINK_Go() (0005ms, 0746ms total)
T1420 001:262 JLINK_IsHalted()  returns FALSE (0004ms, 0750ms total)
T1420 001:352 JLINK_IsHalted() -- CPU_ReadMem(2 bytes @ 0x20000000)  returns TRUE (0011ms, 0757ms total)
T1420 001:364 JLINK_ReadReg(R15 (PC))  returns 0x20000000 (0000ms, 0746ms total)
T1420 001:364 JLINK_ClrBPEx(BPHandle = 0x00000005)  returns 0x00 (0000ms, 0746ms total)
T1420 001:364 JLINK_ReadReg(R0)  returns 0x00000000 (0000ms, 0746ms total)
T1420 001:364 JLINK_WriteMem(0x20000164, 0x0400 Bytes, ...) -- Data:  2D 2D 18 D0 64 1E 4A 46 39 46 20 46 00 F0 C0 FA ... -- CPU_WriteMem(1024 bytes @ 0x20000164)  returns 0x400 (0024ms, 0770ms total)
T1420 001:388 JLINK_WriteReg(R0, 0x08000400)  returns 0x00 (0000ms, 0770ms total)
T1420 001:388 JLINK_WriteReg(R1, 0x00000400)  returns 0x00 (0000ms, 0770ms total)
T1420 001:388 JLINK_WriteReg(R2, 0x20000164)  returns 0x00 (0000ms, 0770ms total)
T1420 001:388 JLINK_WriteReg(R3, 0x00000000)  returns 0x00 (0000ms, 0770ms total)
T1420 001:388 JLINK_WriteReg(R4, 0x00000000)  returns 0x00 (0000ms, 0770ms total)
T1420 001:388 JLINK_WriteReg(R5, 0x00000000)  returns 0x00 (0000ms, 0770ms total)
T1420 001:388 JLINK_WriteReg(R6, 0x00000000)  returns 0x00 (0000ms, 0770ms total)
T1420 001:388 JLINK_WriteReg(R7, 0x00000000)  returns 0x00 (0000ms, 0770ms total)
T1420 001:388 JLINK_WriteReg(R8, 0x00000000)  returns 0x00 (0000ms, 0770ms total)
T1420 001:388 JLINK_WriteReg(R9, 0x20000160)  returns 0x00 (0000ms, 0770ms total)
T1420 001:388 JLINK_WriteReg(R10, 0x00000000)  returns 0x00 (0000ms, 0770ms total)
T1420 001:388 JLINK_WriteReg(R11, 0x00000000)  returns 0x00 (0001ms, 0771ms total)
T1420 001:389 JLINK_WriteReg(R12, 0x00000000)  returns 0x00 (0000ms, 0771ms total)
T1420 001:389 JLINK_WriteReg(R13 (SP), 0x20000800)  returns 0x00 (0000ms, 0771ms total)
T1420 001:389 JLINK_WriteReg(R14, 0x20000001)  returns 0x00 (0000ms, 0771ms total)
T1420 001:389 JLINK_WriteReg(R15 (PC), 0x200000F4)  returns 0x00 (0000ms, 0771ms total)
T1420 001:389 JLINK_WriteReg(XPSR, 0x01000000)  returns 0x00 (0000ms, 0771ms total)
T1420 001:389 JLINK_WriteReg(MSP, 0x20000800)  returns 0x00 (0000ms, 0771ms total)
T1420 001:389 JLINK_WriteReg(PSP, 0x20000800)  returns 0x00 (0000ms, 0771ms total)
T1420 001:389 JLINK_WriteReg(CFBP, 0x00000000)  returns 0x00 (0000ms, 0771ms total)
T1420 001:389 JLINK_SetBPEx(Addr = 0x20000000, Type = 0xFFFFFFF2)  returns 0x00000006 (0000ms, 0771ms total)
T1420 001:389 JLINK_Go() (0005ms, 0776ms total)
T1420 001:394 JLINK_IsHalted()  returns FALSE (0001ms, 0777ms total)
T1420 001:434 JLINK_IsHalted() -- CPU_ReadMem(2 bytes @ 0x20000000)  returns TRUE (0012ms, 0788ms total)
T1420 001:446 JLINK_ReadReg(R15 (PC))  returns 0x20000000 (0000ms, 0776ms total)
T1420 001:446 JLINK_ClrBPEx(BPHandle = 0x00000006)  returns 0x00 (0000ms, 0776ms total)
T1420 001:446 JLINK_ReadReg(R0)  returns 0x00000000 (0000ms, 0776ms total)
T1420 001:446 JLINK_WriteMem(0x20000164, 0x0400 Bytes, ...) -- Data:  04 DA 01 20 82 46 0F E0 6D 1E EE E7 00 2F 02 DC ... -- CPU_WriteMem(1024 bytes @ 0x20000164)  returns 0x400 (0025ms, 0801ms total)
T1420 001:471 JLINK_WriteReg(R0, 0x08000800)  returns 0x00 (0000ms, 0801ms total)
T1420 001:471 JLINK_WriteReg(R1, 0x00000400)  returns 0x00 (0000ms, 0801ms total)
T1420 001:471 JLINK_WriteReg(R2, 0x20000164)  returns 0x00 (0000ms, 0801ms total)
T1420 001:471 JLINK_WriteReg(R3, 0x00000000)  returns 0x00 (0000ms, 0801ms total)
T1420 001:471 JLINK_WriteReg(R4, 0x00000000)  returns 0x00 (0000ms, 0801ms total)
T1420 001:471 JLINK_WriteReg(R5, 0x00000000)  returns 0x00 (0000ms, 0801ms total)
T1420 001:471 JLINK_WriteReg(R6, 0x00000000)  returns 0x00 (0000ms, 0801ms total)
T1420 001:471 JLINK_WriteReg(R7, 0x00000000)  returns 0x00 (0000ms, 0801ms total)
T1420 001:471 JLINK_WriteReg(R8, 0x00000000)  returns 0x00 (0000ms, 0801ms total)
T1420 001:471 JLINK_WriteReg(R9, 0x20000160)  returns 0x00 (0000ms, 0801ms total)
T1420 001:471 JLINK_WriteReg(R10, 0x00000000)  returns 0x00 (0000ms, 0801ms total)
T1420 001:471 JLINK_WriteReg(R11, 0x00000000)  returns 0x00 (0000ms, 0801ms total)
T1420 001:471 JLINK_WriteReg(R12, 0x00000000)  returns 0x00 (0000ms, 0801ms total)
T1420 001:471 JLINK_WriteReg(R13 (SP), 0x20000800)  returns 0x00 (0000ms, 0801ms total)
T1420 001:471 JLINK_WriteReg(R14, 0x20000001)  returns 0x00 (0000ms, 0801ms total)
T1420 001:471 JLINK_WriteReg(R15 (PC), 0x200000F4)  returns 0x00 (0000ms, 0801ms total)
T1420 001:471 JLINK_WriteReg(XPSR, 0x01000000)  returns 0x00 (0000ms, 0801ms total)
T1420 001:471 JLINK_WriteReg(MSP, 0x20000800)  returns 0x00 (0000ms, 0801ms total)
T1420 001:471 JLINK_WriteReg(PSP, 0x20000800)  returns 0x00 (0000ms, 0801ms total)
T1420 001:471 JLINK_WriteReg(CFBP, 0x00000000)  returns 0x00 (0000ms, 0801ms total)
T1420 001:471 JLINK_SetBPEx(Addr = 0x20000000, Type = 0xFFFFFFF2)  returns 0x00000007 (0000ms, 0801ms total)
T1420 001:471 JLINK_Go() (0005ms, 0806ms total)
T1420 001:476 JLINK_IsHalted()  returns FALSE (0001ms, 0807ms total)
T1420 001:535 JLINK_IsHalted() -- CPU_ReadMem(2 bytes @ 0x20000000)  returns TRUE (0011ms, 0817ms total)
T1420 001:546 JLINK_ReadReg(R15 (PC))  returns 0x20000000 (0001ms, 0807ms total)
T1420 001:547 JLINK_ClrBPEx(BPHandle = 0x00000007)  returns 0x00 (0000ms, 0807ms total)
T1420 001:547 JLINK_ReadReg(R0)  returns 0x00000000 (0000ms, 0807ms total)
T1420 001:547 JLINK_WriteMem(0x20000164, 0x0400 Bytes, ...) -- Data:  00 60 04 DB 08 B1 16 A5 05 E0 16 A5 03 E0 08 B1 ... -- CPU_WriteMem(1024 bytes @ 0x20000164)  returns 0x400 (0024ms, 0831ms total)
T1420 001:571 JLINK_WriteReg(R0, 0x08000C00)  returns 0x00 (0000ms, 0831ms total)
T1420 001:571 JLINK_WriteReg(R1, 0x00000400)  returns 0x00 (0000ms, 0831ms total)
T1420 001:571 JLINK_WriteReg(R2, 0x20000164)  returns 0x00 (0000ms, 0831ms total)
T1420 001:571 JLINK_WriteReg(R3, 0x00000000)  returns 0x00 (0000ms, 0831ms total)
T1420 001:571 JLINK_WriteReg(R4, 0x00000000)  returns 0x00 (0000ms, 0831ms total)
T1420 001:571 JLINK_WriteReg(R5, 0x00000000)  returns 0x00 (0000ms, 0831ms total)
T1420 001:571 JLINK_WriteReg(R6, 0x00000000)  returns 0x00 (0000ms, 0831ms total)
T1420 001:571 JLINK_WriteReg(R7, 0x00000000)  returns 0x00 (0000ms, 0831ms total)
T1420 001:571 JLINK_WriteReg(R8, 0x00000000)  returns 0x00 (0000ms, 0831ms total)
T1420 001:571 JLINK_WriteReg(R9, 0x20000160)  returns 0x00 (0000ms, 0831ms total)
T1420 001:571 JLINK_WriteReg(R10, 0x00000000)  returns 0x00 (0000ms, 0831ms total)
T1420 001:571 JLINK_WriteReg(R11, 0x00000000)  returns 0x00 (0000ms, 0831ms total)
T1420 001:571 JLINK_WriteReg(R12, 0x00000000)  returns 0x00 (0000ms, 0831ms total)
T1420 001:571 JLINK_WriteReg(R13 (SP), 0x20000800)  returns 0x00 (0000ms, 0831ms total)
T1420 001:571 JLINK_WriteReg(R14, 0x20000001)  returns 0x00 (0001ms, 0832ms total)
T1420 001:572 JLINK_WriteReg(R15 (PC), 0x200000F4)  returns 0x00 (0000ms, 0832ms total)
T1420 001:572 JLINK_WriteReg(XPSR, 0x01000000)  returns 0x00 (0000ms, 0832ms total)
T1420 001:572 JLINK_WriteReg(MSP, 0x20000800)  returns 0x00 (0000ms, 0832ms total)
T1420 001:572 JLINK_WriteReg(PSP, 0x20000800)  returns 0x00 (0000ms, 0832ms total)
T1420 001:572 JLINK_WriteReg(CFBP, 0x00000000)  returns 0x00 (0000ms, 0832ms total)
T1420 001:572 JLINK_SetBPEx(Addr = 0x20000000, Type = 0xFFFFFFF2)  returns 0x00000008 (0000ms, 0832ms total)
T1420 001:572 JLINK_Go() (0005ms, 0837ms total)
T1420 001:577 JLINK_IsHalted()  returns FALSE (0002ms, 0839ms total)
T1420 001:634 JLINK_IsHalted() -- CPU_ReadMem(2 bytes @ 0x20000000)  returns TRUE (0012ms, 0849ms total)
T1420 001:646 JLINK_ReadReg(R15 (PC))  returns 0x20000000 (0000ms, 0837ms total)
T1420 001:646 JLINK_ClrBPEx(BPHandle = 0x00000008)  returns 0x00 (0000ms, 0837ms total)
T1420 001:646 JLINK_ReadReg(R0)  returns 0x00000000 (0000ms, 0837ms total)
T1420 001:646 JLINK_WriteMem(0x20000164, 0x0400 Bytes, ...) -- Data:  B8 42 12 D1 FF F7 34 FA C0 F8 00 90 C4 F3 0A 50 ... -- CPU_WriteMem(1024 bytes @ 0x20000164)  returns 0x400 (0024ms, 0861ms total)
T1420 001:671 JLINK_WriteReg(R0, 0x08001000)  returns 0x00 (0000ms, 0861ms total)
T1420 001:671 JLINK_WriteReg(R1, 0x00000400)  returns 0x00 (0000ms, 0861ms total)
T1420 001:671 JLINK_WriteReg(R2, 0x20000164)  returns 0x00 (0000ms, 0861ms total)
T1420 001:671 JLINK_WriteReg(R3, 0x00000000)  returns 0x00 (0000ms, 0861ms total)
T1420 001:671 JLINK_WriteReg(R4, 0x00000000)  returns 0x00 (0000ms, 0861ms total)
T1420 001:671 JLINK_WriteReg(R5, 0x00000000)  returns 0x00 (0000ms, 0861ms total)
T1420 001:671 JLINK_WriteReg(R6, 0x00000000)  returns 0x00 (0000ms, 0861ms total)
T1420 001:671 JLINK_WriteReg(R7, 0x00000000)  returns 0x00 (0000ms, 0861ms total)
T1420 001:671 JLINK_WriteReg(R8, 0x00000000)  returns 0x00 (0000ms, 0861ms total)
T1420 001:671 JLINK_WriteReg(R9, 0x20000160)  returns 0x00 (0000ms, 0861ms total)
T1420 001:671 JLINK_WriteReg(R10, 0x00000000)  returns 0x00 (0000ms, 0861ms total)
T1420 001:671 JLINK_WriteReg(R11, 0x00000000)  returns 0x00 (0000ms, 0861ms total)
T1420 001:671 JLINK_WriteReg(R12, 0x00000000)  returns 0x00 (0000ms, 0861ms total)
T1420 001:671 JLINK_WriteReg(R13 (SP), 0x20000800)  returns 0x00 (0000ms, 0861ms total)
T1420 001:671 JLINK_WriteReg(R14, 0x20000001)  returns 0x00 (0000ms, 0861ms total)
T1420 001:671 JLINK_WriteReg(R15 (PC), 0x200000F4)  returns 0x00 (0000ms, 0861ms total)
T1420 001:671 JLINK_WriteReg(XPSR, 0x01000000)  returns 0x00 (0000ms, 0861ms total)
T1420 001:671 JLINK_WriteReg(MSP, 0x20000800)  returns 0x00 (0000ms, 0861ms total)
T1420 001:671 JLINK_WriteReg(PSP, 0x20000800)  returns 0x00 (0000ms, 0861ms total)
T1420 001:671 JLINK_WriteReg(CFBP, 0x00000000)  returns 0x00 (0000ms, 0861ms total)
T1420 001:671 JLINK_SetBPEx(Addr = 0x20000000, Type = 0xFFFFFFF2)  returns 0x00000009 (0000ms, 0861ms total)
T1420 001:671 JLINK_Go() (0005ms, 0866ms total)
T1420 001:676 JLINK_IsHalted()  returns FALSE (0002ms, 0868ms total)
T1420 001:744 JLINK_IsHalted() -- CPU_ReadMem(2 bytes @ 0x20000000)  returns TRUE (0012ms, 0878ms total)
T1420 001:756 JLINK_ReadReg(R15 (PC))  returns 0x20000000 (0000ms, 0866ms total)
T1420 001:756 JLINK_ClrBPEx(BPHandle = 0x00000009)  returns 0x00 (0000ms, 0866ms total)
T1420 001:756 JLINK_ReadReg(R0)  returns 0x00000000 (0000ms, 0866ms total)
T1420 001:756 JLINK_WriteMem(0x20000164, 0x0400 Bytes, ...) -- Data:  05 98 00 B9 36 1D B9 69 08 98 08 F1 01 08 88 47 ... -- CPU_WriteMem(1024 bytes @ 0x20000164)  returns 0x400 (0025ms, 0891ms total)
T1420 001:781 JLINK_WriteReg(R0, 0x08001400)  returns 0x00 (0000ms, 0891ms total)
T1420 001:781 JLINK_WriteReg(R1, 0x00000400)  returns 0x00 (0000ms, 0891ms total)
T1420 001:781 JLINK_WriteReg(R2, 0x20000164)  returns 0x00 (0000ms, 0891ms total)
T1420 001:781 JLINK_WriteReg(R3, 0x00000000)  returns 0x00 (0000ms, 0891ms total)
T1420 001:781 JLINK_WriteReg(R4, 0x00000000)  returns 0x00 (0000ms, 0891ms total)
T1420 001:781 JLINK_WriteReg(R5, 0x00000000)  returns 0x00 (0000ms, 0891ms total)
T1420 001:781 JLINK_WriteReg(R6, 0x00000000)  returns 0x00 (0000ms, 0891ms total)
T1420 001:781 JLINK_WriteReg(R7, 0x00000000)  returns 0x00 (0000ms, 0891ms total)
T1420 001:781 JLINK_WriteReg(R8, 0x00000000)  returns 0x00 (0000ms, 0891ms total)
T1420 001:781 JLINK_WriteReg(R9, 0x20000160)  returns 0x00 (0000ms, 0891ms total)
T1420 001:781 JLINK_WriteReg(R10, 0x00000000)  returns 0x00 (0000ms, 0891ms total)
T1420 001:781 JLINK_WriteReg(R11, 0x00000000)  returns 0x00 (0000ms, 0891ms total)
T1420 001:781 JLINK_WriteReg(R12, 0x00000000)  returns 0x00 (0000ms, 0891ms total)
T1420 001:781 JLINK_WriteReg(R13 (SP), 0x20000800)  returns 0x00 (0000ms, 0891ms total)
T1420 001:781 JLINK_WriteReg(R14, 0x20000001)  returns 0x00 (0000ms, 0891ms total)
T1420 001:781 JLINK_WriteReg(R15 (PC), 0x200000F4)  returns 0x00 (0000ms, 0891ms total)
T1420 001:781 JLINK_WriteReg(XPSR, 0x01000000)  returns 0x00 (0000ms, 0891ms total)
T1420 001:781 JLINK_WriteReg(MSP, 0x20000800)  returns 0x00 (0000ms, 0891ms total)
T1420 001:781 JLINK_WriteReg(PSP, 0x20000800)  returns 0x00 (0000ms, 0891ms total)
T1420 001:781 JLINK_WriteReg(CFBP, 0x00000000)  returns 0x00 (0000ms, 0891ms total)
T1420 001:781 JLINK_SetBPEx(Addr = 0x20000000, Type = 0xFFFFFFF2)  returns 0x0000000A (0000ms, 0891ms total)
T1420 001:781 JLINK_Go() (0005ms, 0896ms total)
T1420 001:786 JLINK_IsHalted()  returns FALSE (0001ms, 0897ms total)
T1420 001:839 JLINK_IsHalted() -- CPU_ReadMem(2 bytes @ 0x20000000)  returns TRUE (0011ms, 0907ms total)
T1420 001:850 JLINK_ReadReg(R15 (PC))  returns 0x20000000 (0001ms, 0897ms total)
T1420 001:851 JLINK_ClrBPEx(BPHandle = 0x0000000A)  returns 0x00 (0000ms, 0897ms total)
T1420 001:851 JLINK_ReadReg(R0)  returns 0x00000000 (0000ms, 0897ms total)
T1420 001:851 JLINK_WriteMem(0x20000164, 0x0400 Bytes, ...) -- Data:  43 EA 51 51 4F EA 1C 50 18 BF 00 F5 F0 40 4F EA ... -- CPU_WriteMem(1024 bytes @ 0x20000164)  returns 0x400 (0024ms, 0921ms total)
T1420 001:875 JLINK_WriteReg(R0, 0x08001800)  returns 0x00 (0001ms, 0922ms total)
T1420 001:876 JLINK_WriteReg(R1, 0x00000400)  returns 0x00 (0000ms, 0922ms total)
T1420 001:876 JLINK_WriteReg(R2, 0x20000164)  returns 0x00 (0000ms, 0922ms total)
T1420 001:876 JLINK_WriteReg(R3, 0x00000000)  returns 0x00 (0000ms, 0922ms total)
T1420 001:876 JLINK_WriteReg(R4, 0x00000000)  returns 0x00 (0000ms, 0922ms total)
T1420 001:876 JLINK_WriteReg(R5, 0x00000000)  returns 0x00 (0000ms, 0922ms total)
T1420 001:876 JLINK_WriteReg(R6, 0x00000000)  returns 0x00 (0000ms, 0922ms total)
T1420 001:876 JLINK_WriteReg(R7, 0x00000000)  returns 0x00 (0000ms, 0922ms total)
T1420 001:876 JLINK_WriteReg(R8, 0x00000000)  returns 0x00 (0000ms, 0922ms total)
T1420 001:876 JLINK_WriteReg(R9, 0x20000160)  returns 0x00 (0000ms, 0922ms total)
T1420 001:876 JLINK_WriteReg(R10, 0x00000000)  returns 0x00 (0000ms, 0922ms total)
T1420 001:876 JLINK_WriteReg(R11, 0x00000000)  returns 0x00 (0000ms, 0922ms total)
T1420 001:876 JLINK_WriteReg(R12, 0x00000000)  returns 0x00 (0000ms, 0922ms total)
T1420 001:876 JLINK_WriteReg(R13 (SP), 0x20000800)  returns 0x00 (0000ms, 0922ms total)
T1420 001:876 JLINK_WriteReg(R14, 0x20000001)  returns 0x00 (0000ms, 0922ms total)
T1420 001:876 JLINK_WriteReg(R15 (PC), 0x200000F4)  returns 0x00 (0000ms, 0922ms total)
T1420 001:876 JLINK_WriteReg(XPSR, 0x01000000)  returns 0x00 (0000ms, 0922ms total)
T1420 001:876 JLINK_WriteReg(MSP, 0x20000800)  returns 0x00 (0000ms, 0922ms total)
T1420 001:876 JLINK_WriteReg(PSP, 0x20000800)  returns 0x00 (0000ms, 0922ms total)
T1420 001:876 JLINK_WriteReg(CFBP, 0x00000000)  returns 0x00 (0000ms, 0922ms total)
T1420 001:876 JLINK_SetBPEx(Addr = 0x20000000, Type = 0xFFFFFFF2)  returns 0x0000000B (0000ms, 0922ms total)
T1420 001:876 JLINK_Go() (0005ms, 0927ms total)
T1420 001:881 JLINK_IsHalted()  returns FALSE (0001ms, 0928ms total)
T1420 001:941 JLINK_IsHalted() -- CPU_ReadMem(2 bytes @ 0x20000000)  returns TRUE (0011ms, 0938ms total)
T1420 001:952 JLINK_ReadReg(R15 (PC))  returns 0x20000000 (0000ms, 0927ms total)
T1420 001:952 JLINK_ClrBPEx(BPHandle = 0x0000000B)  returns 0x00 (0001ms, 0928ms total)
T1420 001:953 JLINK_ReadReg(R0)  returns 0x00000000 (0000ms, 0928ms total)
T1420 001:953 JLINK_WriteMem(0x20000164, 0x0400 Bytes, ...) -- Data:  43 43 43 42 42 42 42 41 41 41 00 00 46 EA 06 46 ... -- CPU_WriteMem(1024 bytes @ 0x20000164)  returns 0x400 (0024ms, 0952ms total)
T1420 001:977 JLINK_WriteReg(R0, 0x08001C00)  returns 0x00 (0000ms, 0952ms total)
T1420 001:977 JLINK_WriteReg(R1, 0x00000400)  returns 0x00 (0000ms, 0952ms total)
T1420 001:977 JLINK_WriteReg(R2, 0x20000164)  returns 0x00 (0000ms, 0952ms total)
T1420 001:977 JLINK_WriteReg(R3, 0x00000000)  returns 0x00 (0000ms, 0952ms total)
T1420 001:977 JLINK_WriteReg(R4, 0x00000000)  returns 0x00 (0000ms, 0952ms total)
T1420 001:977 JLINK_WriteReg(R5, 0x00000000)  returns 0x00 (0000ms, 0952ms total)
T1420 001:977 JLINK_WriteReg(R6, 0x00000000)  returns 0x00 (0000ms, 0952ms total)
T1420 001:977 JLINK_WriteReg(R7, 0x00000000)  returns 0x00 (0000ms, 0952ms total)
T1420 001:977 JLINK_WriteReg(R8, 0x00000000)  returns 0x00 (0000ms, 0952ms total)
T1420 001:977 JLINK_WriteReg(R9, 0x20000160)  returns 0x00 (0000ms, 0952ms total)
T1420 001:977 JLINK_WriteReg(R10, 0x00000000)  returns 0x00 (0000ms, 0952ms total)
T1420 001:978 JLINK_WriteReg(R11, 0x00000000)  returns 0x00 (0000ms, 0953ms total)
T1420 001:978 JLINK_WriteReg(R12, 0x00000000)  returns 0x00 (0000ms, 0953ms total)
T1420 001:978 JLINK_WriteReg(R13 (SP), 0x20000800)  returns 0x00 (0000ms, 0953ms total)
T1420 001:978 JLINK_WriteReg(R14, 0x20000001)  returns 0x00 (0000ms, 0953ms total)
T1420 001:978 JLINK_WriteReg(R15 (PC), 0x200000F4)  returns 0x00 (0000ms, 0953ms total)
T1420 001:978 JLINK_WriteReg(XPSR, 0x01000000)  returns 0x00 (0000ms, 0953ms total)
T1420 001:978 JLINK_WriteReg(MSP, 0x20000800)  returns 0x00 (0000ms, 0953ms total)
T1420 001:978 JLINK_WriteReg(PSP, 0x20000800)  returns 0x00 (0000ms, 0953ms total)
T1420 001:978 JLINK_WriteReg(CFBP, 0x00000000)  returns 0x00 (0000ms, 0953ms total)
T1420 001:978 JLINK_SetBPEx(Addr = 0x20000000, Type = 0xFFFFFFF2)  returns 0x0000000C (0000ms, 0953ms total)
T1420 001:978 JLINK_Go() (0005ms, 0958ms total)
T1420 001:983 JLINK_IsHalted()  returns FALSE (0003ms, 0961ms total)
T1420 002:043 JLINK_IsHalted() -- CPU_ReadMem(2 bytes @ 0x20000000)  returns TRUE (0012ms, 0970ms total)
T1420 002:055 JLINK_ReadReg(R15 (PC))  returns 0x20000000 (0000ms, 0958ms total)
T1420 002:055 JLINK_ClrBPEx(BPHandle = 0x0000000C)  returns 0x00 (0000ms, 0958ms total)
T1420 002:055 JLINK_ReadReg(R0)  returns 0x00000000 (0000ms, 0958ms total)
T1420 002:056 JLINK_WriteMem(0x20000164, 0x0400 Bytes, ...) -- Data:  41 EB 01 01 A3 F1 01 03 70 47 00 BF FE E7 01 46 ... -- CPU_WriteMem(1024 bytes @ 0x20000164)  returns 0x400 (0024ms, 0982ms total)
T1420 002:080 JLINK_WriteReg(R0, 0x08002000)  returns 0x00 (0000ms, 0982ms total)
T1420 002:080 JLINK_WriteReg(R1, 0x00000400)  returns 0x00 (0000ms, 0982ms total)
T1420 002:080 JLINK_WriteReg(R2, 0x20000164)  returns 0x00 (0000ms, 0982ms total)
T1420 002:080 JLINK_WriteReg(R3, 0x00000000)  returns 0x00 (0000ms, 0982ms total)
T1420 002:080 JLINK_WriteReg(R4, 0x00000000)  returns 0x00 (0000ms, 0982ms total)
T1420 002:080 JLINK_WriteReg(R5, 0x00000000)  returns 0x00 (0000ms, 0982ms total)
T1420 002:080 JLINK_WriteReg(R6, 0x00000000)  returns 0x00 (0000ms, 0982ms total)
T1420 002:080 JLINK_WriteReg(R7, 0x00000000)  returns 0x00 (0000ms, 0982ms total)
T1420 002:080 JLINK_WriteReg(R8, 0x00000000)  returns 0x00 (0000ms, 0982ms total)
T1420 002:080 JLINK_WriteReg(R9, 0x20000160)  returns 0x00 (0000ms, 0982ms total)
T1420 002:080 JLINK_WriteReg(R10, 0x00000000)  returns 0x00 (0000ms, 0982ms total)
T1420 002:080 JLINK_WriteReg(R11, 0x00000000)  returns 0x00 (0000ms, 0982ms total)
T1420 002:080 JLINK_WriteReg(R12, 0x00000000)  returns 0x00 (0000ms, 0982ms total)
T1420 002:080 JLINK_WriteReg(R13 (SP), 0x20000800)  returns 0x00 (0000ms, 0982ms total)
T1420 002:080 JLINK_WriteReg(R14, 0x20000001)  returns 0x00 (0000ms, 0982ms total)
T1420 002:080 JLINK_WriteReg(R15 (PC), 0x200000F4)  returns 0x00 (0000ms, 0982ms total)
T1420 002:080 JLINK_WriteReg(XPSR, 0x01000000)  returns 0x00 (0000ms, 0982ms total)
T1420 002:080 JLINK_WriteReg(MSP, 0x20000800)  returns 0x00 (0000ms, 0982ms total)
T1420 002:080 JLINK_WriteReg(PSP, 0x20000800)  returns 0x00 (0000ms, 0982ms total)
T1420 002:080 JLINK_WriteReg(CFBP, 0x00000000)  returns 0x00 (0000ms, 0982ms total)
T1420 002:080 JLINK_SetBPEx(Addr = 0x20000000, Type = 0xFFFFFFF2)  returns 0x0000000D (0000ms, 0982ms total)
T1420 002:081 JLINK_Go() (0004ms, 0987ms total)
T1420 002:085 JLINK_IsHalted()  returns FALSE (0002ms, 0989ms total)
T1420 002:146 JLINK_IsHalted() -- CPU_ReadMem(2 bytes @ 0x20000000)  returns TRUE (0012ms, 0999ms total)
T1420 002:158 JLINK_ReadReg(R15 (PC))  returns 0x20000000 (0000ms, 0987ms total)
T1420 002:158 JLINK_ClrBPEx(BPHandle = 0x0000000D)  returns 0x00 (0000ms, 0987ms total)
T1420 002:158 JLINK_ReadReg(R0)  returns 0x00000000 (0000ms, 0987ms total)
T1420 002:158 JLINK_WriteMem(0x20000164, 0x0400 Bytes, ...) -- Data:  1C 00 00 20 88 00 00 20 10 B5 04 46 02 49 20 46 ... -- CPU_WriteMem(1024 bytes @ 0x20000164)  returns 0x400 (0024ms, 1011ms total)
T1420 002:182 JLINK_WriteReg(R0, 0x08002400)  returns 0x00 (0000ms, 1011ms total)
T1420 002:182 JLINK_WriteReg(R1, 0x00000400)  returns 0x00 (0000ms, 1011ms total)
T1420 002:182 JLINK_WriteReg(R2, 0x20000164)  returns 0x00 (0000ms, 1011ms total)
T1420 002:182 JLINK_WriteReg(R3, 0x00000000)  returns 0x00 (0000ms, 1011ms total)
T1420 002:182 JLINK_WriteReg(R4, 0x00000000)  returns 0x00 (0000ms, 1011ms total)
T1420 002:183 JLINK_WriteReg(R5, 0x00000000)  returns 0x00 (0000ms, 1012ms total)
T1420 002:183 JLINK_WriteReg(R6, 0x00000000)  returns 0x00 (0000ms, 1012ms total)
T1420 002:183 JLINK_WriteReg(R7, 0x00000000)  returns 0x00 (0000ms, 1012ms total)
T1420 002:183 JLINK_WriteReg(R8, 0x00000000)  returns 0x00 (0000ms, 1012ms total)
T1420 002:183 JLINK_WriteReg(R9, 0x20000160)  returns 0x00 (0000ms, 1012ms total)
T1420 002:183 JLINK_WriteReg(R10, 0x00000000)  returns 0x00 (0000ms, 1012ms total)
T1420 002:183 JLINK_WriteReg(R11, 0x00000000)  returns 0x00 (0000ms, 1012ms total)
T1420 002:183 JLINK_WriteReg(R12, 0x00000000)  returns 0x00 (0000ms, 1012ms total)
T1420 002:183 JLINK_WriteReg(R13 (SP), 0x20000800)  returns 0x00 (0000ms, 1012ms total)
T1420 002:183 JLINK_WriteReg(R14, 0x20000001)  returns 0x00 (0000ms, 1012ms total)
T1420 002:183 JLINK_WriteReg(R15 (PC), 0x200000F4)  returns 0x00 (0000ms, 1012ms total)
T1420 002:183 JLINK_WriteReg(XPSR, 0x01000000)  returns 0x00 (0000ms, 1012ms total)
T1420 002:183 JLINK_WriteReg(MSP, 0x20000800)  returns 0x00 (0000ms, 1012ms total)
T1420 002:183 JLINK_WriteReg(PSP, 0x20000800)  returns 0x00 (0000ms, 1012ms total)
T1420 002:183 JLINK_WriteReg(CFBP, 0x00000000)  returns 0x00 (0000ms, 1012ms total)
T1420 002:183 JLINK_SetBPEx(Addr = 0x20000000, Type = 0xFFFFFFF2)  returns 0x0000000E (0000ms, 1012ms total)
T1420 002:183 JLINK_Go() (0005ms, 1017ms total)
T1420 002:188 JLINK_IsHalted()  returns FALSE (0001ms, 1018ms total)
T1420 002:194 JLINK_IsHalted()  returns FALSE (0001ms, 1018ms total)
T1420 002:196 JLINK_IsHalted()  returns FALSE (0001ms, 1018ms total)
T1420 002:199 JLINK_IsHalted()  returns FALSE (0001ms, 1018ms total)
T1420 002:201 JLINK_IsHalted()  returns FALSE (0001ms, 1018ms total)
T1420 002:256 JLINK_IsHalted() -- CPU_ReadMem(2 bytes @ 0x20000000)  returns TRUE (0011ms, 1028ms total)
T1420 002:267 JLINK_ReadReg(R15 (PC))  returns 0x20000000 (0000ms, 1017ms total)
T1420 002:267 JLINK_ClrBPEx(BPHandle = 0x0000000E)  returns 0x00 (0000ms, 1017ms total)
T1420 002:267 JLINK_ReadReg(R0)  returns 0x00000000 (0001ms, 1018ms total)
T1420 002:268 JLINK_WriteMem(0x20000164, 0x0400 Bytes, ...) -- Data:  70 09 67 48 00 68 40 79 00 F0 80 00 38 B1 67 49 ... -- CPU_WriteMem(1024 bytes @ 0x20000164)  returns 0x400 (0024ms, 1042ms total)
T1420 002:292 JLINK_WriteReg(R0, 0x08002800)  returns 0x00 (0000ms, 1042ms total)
T1420 002:292 JLINK_WriteReg(R1, 0x00000400)  returns 0x00 (0000ms, 1042ms total)
T1420 002:292 JLINK_WriteReg(R2, 0x20000164)  returns 0x00 (0000ms, 1042ms total)
T1420 002:292 JLINK_WriteReg(R3, 0x00000000)  returns 0x00 (0000ms, 1042ms total)
T1420 002:292 JLINK_WriteReg(R4, 0x00000000)  returns 0x00 (0000ms, 1042ms total)
T1420 002:292 JLINK_WriteReg(R5, 0x00000000)  returns 0x00 (0000ms, 1042ms total)
T1420 002:292 JLINK_WriteReg(R6, 0x00000000)  returns 0x00 (0000ms, 1042ms total)
T1420 002:292 JLINK_WriteReg(R7, 0x00000000)  returns 0x00 (0000ms, 1042ms total)
T1420 002:292 JLINK_WriteReg(R8, 0x00000000)  returns 0x00 (0000ms, 1042ms total)
T1420 002:292 JLINK_WriteReg(R9, 0x20000160)  returns 0x00 (0000ms, 1042ms total)
T1420 002:292 JLINK_WriteReg(R10, 0x00000000)  returns 0x00 (0000ms, 1042ms total)
T1420 002:292 JLINK_WriteReg(R11, 0x00000000)  returns 0x00 (0000ms, 1042ms total)
T1420 002:292 JLINK_WriteReg(R12, 0x00000000)  returns 0x00 (0000ms, 1042ms total)
T1420 002:292 JLINK_WriteReg(R13 (SP), 0x20000800)  returns 0x00 (0000ms, 1042ms total)
T1420 002:292 JLINK_WriteReg(R14, 0x20000001)  returns 0x00 (0000ms, 1042ms total)
T1420 002:292 JLINK_WriteReg(R15 (PC), 0x200000F4)  returns 0x00 (0000ms, 1042ms total)
T1420 002:292 JLINK_WriteReg(XPSR, 0x01000000)  returns 0x00 (0000ms, 1042ms total)
T1420 002:292 JLINK_WriteReg(MSP, 0x20000800)  returns 0x00 (0001ms, 1043ms total)
T1420 002:293 JLINK_WriteReg(PSP, 0x20000800)  returns 0x00 (0000ms, 1043ms total)
T1420 002:293 JLINK_WriteReg(CFBP, 0x00000000)  returns 0x00 (0000ms, 1043ms total)
T1420 002:293 JLINK_SetBPEx(Addr = 0x20000000, Type = 0xFFFFFFF2)  returns 0x0000000F (0000ms, 1043ms total)
T1420 002:293 JLINK_Go() (0005ms, 1048ms total)
T1420 002:298 JLINK_IsHalted()  returns FALSE (0001ms, 1049ms total)
T1420 002:304 JLINK_IsHalted()  returns FALSE (0001ms, 1049ms total)
T1420 002:306 JLINK_IsHalted()  returns FALSE (0001ms, 1049ms total)
T1420 002:308 JLINK_IsHalted()  returns FALSE (0001ms, 1049ms total)
T1420 002:310 JLINK_IsHalted()  returns FALSE (0001ms, 1049ms total)
T1420 002:367 JLINK_IsHalted() -- CPU_ReadMem(2 bytes @ 0x20000000)  returns TRUE (0011ms, 1059ms total)
T1420 002:378 JLINK_ReadReg(R15 (PC))  returns 0x20000000 (0000ms, 1048ms total)
T1420 002:378 JLINK_ClrBPEx(BPHandle = 0x0000000F)  returns 0x00 (0000ms, 1048ms total)
T1420 002:378 JLINK_ReadReg(R0)  returns 0x00000000 (0000ms, 1048ms total)
T1420 002:379 JLINK_WriteMem(0x20000164, 0x0400 Bytes, ...) -- Data:  00 FC C2 F8 10 C0 40 1C 08 28 D1 D3 14 60 B1 F8 ... -- CPU_WriteMem(1024 bytes @ 0x20000164)  returns 0x400 (0024ms, 1072ms total)
T1420 002:403 JLINK_WriteReg(R0, 0x08002C00)  returns 0x00 (0000ms, 1072ms total)
T1420 002:403 JLINK_WriteReg(R1, 0x00000400)  returns 0x00 (0000ms, 1072ms total)
T1420 002:403 JLINK_WriteReg(R2, 0x20000164)  returns 0x00 (0000ms, 1072ms total)
T1420 002:403 JLINK_WriteReg(R3, 0x00000000)  returns 0x00 (0000ms, 1072ms total)
T1420 002:403 JLINK_WriteReg(R4, 0x00000000)  returns 0x00 (0000ms, 1072ms total)
T1420 002:403 JLINK_WriteReg(R5, 0x00000000)  returns 0x00 (0000ms, 1072ms total)
T1420 002:403 JLINK_WriteReg(R6, 0x00000000)  returns 0x00 (0000ms, 1072ms total)
T1420 002:403 JLINK_WriteReg(R7, 0x00000000)  returns 0x00 (0000ms, 1072ms total)
T1420 002:403 JLINK_WriteReg(R8, 0x00000000)  returns 0x00 (0000ms, 1072ms total)
T1420 002:403 JLINK_WriteReg(R9, 0x20000160)  returns 0x00 (0000ms, 1072ms total)
T1420 002:403 JLINK_WriteReg(R10, 0x00000000)  returns 0x00 (0000ms, 1072ms total)
T1420 002:403 JLINK_WriteReg(R11, 0x00000000)  returns 0x00 (0000ms, 1072ms total)
T1420 002:403 JLINK_WriteReg(R12, 0x00000000)  returns 0x00 (0000ms, 1072ms total)
T1420 002:403 JLINK_WriteReg(R13 (SP), 0x20000800)  returns 0x00 (0000ms, 1072ms total)
T1420 002:403 JLINK_WriteReg(R14, 0x20000001)  returns 0x00 (0000ms, 1072ms total)
T1420 002:403 JLINK_WriteReg(R15 (PC), 0x200000F4)  returns 0x00 (0000ms, 1072ms total)
T1420 002:403 JLINK_WriteReg(XPSR, 0x01000000)  returns 0x00 (0000ms, 1072ms total)
T1420 002:403 JLINK_WriteReg(MSP, 0x20000800)  returns 0x00 (0000ms, 1072ms total)
T1420 002:403 JLINK_WriteReg(PSP, 0x20000800)  returns 0x00 (0001ms, 1073ms total)
T1420 002:404 JLINK_WriteReg(CFBP, 0x00000000)  returns 0x00 (0000ms, 1073ms total)
T1420 002:404 JLINK_SetBPEx(Addr = 0x20000000, Type = 0xFFFFFFF2)  returns 0x00000010 (0000ms, 1073ms total)
T1420 002:404 JLINK_Go() (0004ms, 1077ms total)
T1420 002:408 JLINK_IsHalted()  returns FALSE (0001ms, 1078ms total)
T1420 002:414 JLINK_IsHalted()  returns FALSE (0001ms, 1078ms total)
T1420 002:416 JLINK_IsHalted()  returns FALSE (0001ms, 1078ms total)
T1420 002:418 JLINK_IsHalted()  returns FALSE (0001ms, 1078ms total)
T1420 002:420 JLINK_IsHalted()  returns FALSE (0001ms, 1078ms total)
T1420 002:476 JLINK_IsHalted() -- CPU_ReadMem(2 bytes @ 0x20000000)  returns TRUE (0011ms, 1088ms total)
T1420 002:487 JLINK_ReadReg(R15 (PC))  returns 0x20000000 (0000ms, 1077ms total)
T1420 002:487 JLINK_ClrBPEx(BPHandle = 0x00000010)  returns 0x00 (0000ms, 1077ms total)
T1420 002:487 JLINK_ReadReg(R0)  returns 0x00000000 (0000ms, 1077ms total)
T1420 002:488 JLINK_WriteMem(0x20000164, 0x0400 Bytes, ...) -- Data:  50 5C 00 40 00 60 00 40 2E 00 00 20 10 B5 11 48 ... -- CPU_WriteMem(1024 bytes @ 0x20000164)  returns 0x400 (0024ms, 1101ms total)
T1420 002:512 JLINK_WriteReg(R0, 0x08003000)  returns 0x00 (0000ms, 1101ms total)
T1420 002:512 JLINK_WriteReg(R1, 0x00000400)  returns 0x00 (0000ms, 1101ms total)
T1420 002:512 JLINK_WriteReg(R2, 0x20000164)  returns 0x00 (0000ms, 1101ms total)
T1420 002:512 JLINK_WriteReg(R3, 0x00000000)  returns 0x00 (0000ms, 1101ms total)
T1420 002:512 JLINK_WriteReg(R4, 0x00000000)  returns 0x00 (0000ms, 1101ms total)
T1420 002:512 JLINK_WriteReg(R5, 0x00000000)  returns 0x00 (0000ms, 1101ms total)
T1420 002:512 JLINK_WriteReg(R6, 0x00000000)  returns 0x00 (0000ms, 1101ms total)
T1420 002:512 JLINK_WriteReg(R7, 0x00000000)  returns 0x00 (0000ms, 1101ms total)
T1420 002:512 JLINK_WriteReg(R8, 0x00000000)  returns 0x00 (0000ms, 1101ms total)
T1420 002:512 JLINK_WriteReg(R9, 0x20000160)  returns 0x00 (0000ms, 1101ms total)
T1420 002:512 JLINK_WriteReg(R10, 0x00000000)  returns 0x00 (0000ms, 1101ms total)
T1420 002:512 JLINK_WriteReg(R11, 0x00000000)  returns 0x00 (0000ms, 1101ms total)
T1420 002:512 JLINK_WriteReg(R12, 0x00000000)  returns 0x00 (0000ms, 1101ms total)
T1420 002:513 JLINK_WriteReg(R13 (SP), 0x20000800)  returns 0x00 (0000ms, 1102ms total)
T1420 002:513 JLINK_WriteReg(R14, 0x20000001)  returns 0x00 (0000ms, 1102ms total)
T1420 002:513 JLINK_WriteReg(R15 (PC), 0x200000F4)  returns 0x00 (0000ms, 1102ms total)
T1420 002:513 JLINK_WriteReg(XPSR, 0x01000000)  returns 0x00 (0000ms, 1102ms total)
T1420 002:513 JLINK_WriteReg(MSP, 0x20000800)  returns 0x00 (0000ms, 1102ms total)
T1420 002:513 JLINK_WriteReg(PSP, 0x20000800)  returns 0x00 (0000ms, 1102ms total)
T1420 002:513 JLINK_WriteReg(CFBP, 0x00000000)  returns 0x00 (0000ms, 1102ms total)
T1420 002:513 JLINK_SetBPEx(Addr = 0x20000000, Type = 0xFFFFFFF2)  returns 0x00000011 (0000ms, 1102ms total)
T1420 002:513 JLINK_Go() (0005ms, 1107ms total)
T1420 002:519 JLINK_IsHalted()  returns FALSE (0002ms, 1110ms total)
T1420 002:581 JLINK_IsHalted() -- CPU_ReadMem(2 bytes @ 0x20000000)  returns TRUE (0012ms, 1120ms total)
T1420 002:593 JLINK_ReadReg(R15 (PC))  returns 0x20000000 (0000ms, 1108ms total)
T1420 002:593 JLINK_ClrBPEx(BPHandle = 0x00000011)  returns 0x00 (0000ms, 1108ms total)
T1420 002:593 JLINK_ReadReg(R0)  returns 0x00000000 (0000ms, 1108ms total)
T1420 002:593 JLINK_WriteMem(0x20000164, 0x0400 Bytes, ...) -- Data:  14 20 FF F7 E0 FA 01 20 2E 49 08 60 28 20 FF F7 ... -- CPU_WriteMem(1024 bytes @ 0x20000164)  returns 0x400 (0024ms, 1132ms total)
T1420 002:617 JLINK_WriteReg(R0, 0x08003400)  returns 0x00 (0000ms, 1132ms total)
T1420 002:617 JLINK_WriteReg(R1, 0x00000400)  returns 0x00 (0000ms, 1132ms total)
T1420 002:618 JLINK_WriteReg(R2, 0x20000164)  returns 0x00 (0000ms, 1133ms total)
T1420 002:618 JLINK_WriteReg(R3, 0x00000000)  returns 0x00 (0000ms, 1133ms total)
T1420 002:618 JLINK_WriteReg(R4, 0x00000000)  returns 0x00 (0000ms, 1133ms total)
T1420 002:618 JLINK_WriteReg(R5, 0x00000000)  returns 0x00 (0000ms, 1133ms total)
T1420 002:618 JLINK_WriteReg(R6, 0x00000000)  returns 0x00 (0000ms, 1133ms total)
